Time [s],Channel 0,Channel 1,Channel 2,Channel 3,Channel 4,Channel 5,Channel 6,Channel 7
34.054394853,0,0,1,0,1,0,0,0
34.054422400,0,0,0,0,0,0,0,0
34.054444000,0,0,1,0,1,0,0,0
34.054472320,0,0,0,0,0,0,0,0
34.054493920,0,0,1,0,1,0,0,0
34.054522080,0,0,0,0,0,0,0,0
34.054543840,0,0,1,0,1,0,0,0
34.054572160,0,0,0,0,0,0,0,0
34.054593760,0,0,1,0,1,0,0,0
34.054621920,0,0,1,0,0,0,0,0
34.054622080,0,0,0,0,0,0,0,0
34.054643680,0,0,1,0,1,0,0,0
34.054671840,0,0,0,0,0,0,0,0
34.054693600,0,0,1,0,1,0,0,0
34.054721760,0,0,0,0,0,0,0,0
34.054743520,0,0,1,0,1,0,0,0
34.054771680,0,0,0,0,0,0,0,0
34.054793440,0,0,1,0,1,0,0,0
34.054821600,0,0,0,0,0,0,0,0
34.054843360,0,0,1,0,1,0,0,0
34.054871520,0,0,0,0,0,0,0,0
34.054893280,0,0,1,0,1,0,0,0
34.054921440,0,0,0,0,0,0,0,0
34.054943040,0,0,1,0,1,0,0,0
34.054971360,0,0,0,0,0,0,0,0
34.054992960,0,0,1,0,1,0,0,0
34.055021280,0,0,0,0,0,0,0,0
34.055042880,0,0,1,0,1,0,0,0
34.055071200,0,0,0,0,0,0,0,0
34.055092800,0,0,1,0,1,0,0,0
34.055121120,0,0,0,0,0,0,0,0
34.055142720,0,0,1,0,1,0,0,0
34.055171040,0,0,0,0,0,0,0,0
34.055192640,0,0,1,0,1,0,0,0
34.055220960,0,0,0,0,0,0,0,0
34.055242560,0,0,1,0,1,0,0,0
34.055270880,0,0,0,0,0,0,0,0
34.055292480,0,0,1,0,1,0,0,0
34.055320800,0,0,0,0,0,0,0,0
34.055342400,0,0,1,0,1,0,0,0
34.055370720,0,0,0,0,0,0,0,0
34.055392320,0,0,1,0,1,0,0,0
34.055420640,0,0,0,0,0,0,0,0
34.055442240,0,0,1,0,1,0,0,0
34.055470400,0,0,0,0,0,0,0,0
34.055492160,0,0,1,0,1,0,0,0
34.055520320,0,0,0,0,0,0,0,0
34.055542080,0,0,1,0,1,0,0,0
34.055570240,0,0,0,0,0,0,0,0
34.055592000,0,0,1,0,1,0,0,0
34.055620160,0,0,0,0,0,0,0,0
34.055641920,0,0,1,0,1,0,0,0
34.055670080,0,0,0,0,0,0,0,0
34.055691840,0,0,1,0,1,0,0,0
34.055720000,0,0,0,0,0,0,0,0
34.055741760,0,0,1,0,1,0,0,0
34.055769920,0,0,0,0,0,0,0,0
34.055791680,0,0,1,0,1,0,0,0
34.055819840,0,0,0,0,0,0,0,0
34.055841440,0,0,1,0,1,0,0,0
34.055869760,0,0,0,0,0,0,0,0
34.055891360,0,0,1,0,1,0,0,0
34.055919680,0,0,0,0,0,0,0,0
34.055941280,0,0,1,0,1,0,0,0
34.055969600,0,0,0,0,0,0,0,0
34.055991200,0,0,1,0,1,0,0,0
34.056019520,0,0,0,0,0,0,0,0
34.056041120,0,0,1,0,1,0,0,0
34.056069440,0,0,0,0,0,0,0,0
34.056091040,0,0,1,0,1,0,0,0
34.056119360,0,0,0,0,0,0,0,0
34.056140960,0,0,1,0,1,0,0,0
34.056169280,0,0,0,0,0,0,0,0
34.056190880,0,0,1,0,1,0,0,0
34.056219200,0,0,0,0,0,0,0,0
34.056240800,0,0,1,0,1,0,0,0
34.056269120,0,0,0,0,0,0,0,0
34.056290720,0,0,1,0,1,0,0,0
34.056319040,0,0,0,0,0,0,0,0
34.056340640,0,0,1,0,1,0,0,0
34.056368960,0,0,0,0,0,0,0,0
34.056390560,0,0,1,0,1,0,0,0
34.056418880,0,0,0,0,0,0,0,0
34.056440480,0,0,1,0,1,0,0,0
34.056468800,0,0,0,0,0,0,0,0
34.056490400,0,0,1,0,1,0,0,0
34.056518720,0,0,0,0,0,0,0,0
34.056540320,0,0,1,0,1,0,0,0
34.056568640,0,0,0,0,0,0,0,0
34.056590240,0,0,1,0,1,0,0,0
34.056618560,0,0,0,0,0,0,0,0
34.056640160,0,0,1,0,1,0,0,0
34.056668480,0,0,0,0,0,0,0,0
34.056690080,0,0,1,0,1,0,0,0
34.056700320,0,0,1,0,0,0,0,0
34.056704160,0,0,1,1,0,0,0,0
34.056718400,0,0,0,0,0,0,0,0
34.056740000,0,0,1,1,0,0,0,0
34.056768320,0,0,0,0,0,0,0,0
34.056789920,0,0,1,1,0,0,0,0
34.056818240,0,0,0,0,0,0,0,0
34.056839840,0,0,1,1,0,0,0,0
34.056868160,0,0,0,0,0,0,0,0
34.056889760,0,0,1,1,0,0,0,0
34.056918080,0,0,0,0,0,0,0,0
34.056939680,0,0,1,1,0,0,0,0
34.056968000,0,0,0,0,0,0,0,0
34.056989600,0,0,1,1,0,0,0,0
34.057017920,0,0,0,0,0,0,0,0
34.057039520,0,0,1,1,0,0,0,0
34.057067840,0,0,0,0,0,0,0,0
34.057089440,0,0,1,1,0,0,0,0
34.057117760,0,0,0,0,0,0,0,0
34.057139360,0,0,1,1,0,0,0,0
34.057139520,0,1,1,1,0,0,0,0
34.057139680,0,0,1,1,0,0,0,0
34.057167520,0,0,0,0,0,0,0,0
34.057189280,0,0,1,1,0,0,0,0
34.057217440,0,0,0,0,0,0,0,0
34.057239200,0,0,1,1,0,0,0,0
34.057267360,0,0,0,0,0,0,0,0
34.057288960,0,0,1,1,0,0,0,0
34.057317280,0,0,0,0,0,0,0,0
34.057338880,0,0,1,1,0,0,0,0
34.057367200,0,0,0,0,0,0,0,0
34.057388800,0,0,1,1,0,0,0,0
34.057417120,0,0,0,0,0,0,0,0
34.057438720,0,0,1,1,0,0,0,0
34.057467040,0,0,0,0,0,0,0,0
34.057488640,0,0,1,1,0,0,0,0
34.057516960,0,0,0,0,0,0,0,0
34.057538560,0,0,1,1,0,0,0,0
34.057566880,0,0,0,0,0,0,0,0
34.057588480,0,0,1,1,0,0,0,0
34.057616800,0,0,0,0,0,0,0,0
34.057638400,0,0,1,1,0,0,0,0
34.057666720,0,0,0,0,0,0,0,0
34.057688320,0,0,1,1,0,0,0,0
34.057716640,0,0,0,0,0,0,0,0
34.057738240,0,0,1,1,0,0,0,0
34.057766560,0,0,0,0,0,0,0,0
34.057788160,0,0,1,1,0,0,0,0
34.057816480,0,0,0,0,0,0,0,0
34.057838080,0,0,1,1,0,0,0,0
34.057866400,0,0,0,0,0,0,0,0
34.057888000,0,0,1,1,0,0,0,0
34.057916320,0,0,0,0,0,0,0,0
34.057937920,0,0,1,1,0,0,0,0
34.057966240,0,0,0,0,0,0,0,0
34.057987840,0,0,1,1,0,0,0,0
34.058016160,0,0,0,0,0,0,0,0
34.058037760,0,0,1,1,0,0,0,0
34.058066080,0,0,0,0,0,0,0,0
34.058087680,0,0,1,1,0,0,0,0
34.058116000,0,0,0,0,0,0,0,0
34.058137600,0,0,1,1,0,0,0,0
34.058165920,0,0,0,0,0,0,0,0
34.058187520,0,0,1,1,0,0,0,0
34.058215840,0,0,0,0,0,0,0,0
34.058237440,0,0,1,1,0,0,0,0
34.058265760,0,0,0,0,0,0,0,0
34.058287360,0,0,1,1,0,0,0,0
34.058315680,0,0,0,0,0,0,0,0
34.058337280,0,0,1,1,0,0,0,0
34.058365600,0,0,0,0,0,0,0,0
34.058387200,0,0,1,1,0,0,0,0
34.058415520,0,0,0,0,0,0,0,0
34.058437120,0,0,1,1,0,0,0,0
34.058465280,0,0,0,0,0,0,0,0
34.058487040,0,0,1,1,0,0,0,0
34.058515200,0,0,0,0,0,0,0,0
34.058536960,0,0,1,1,0,0,0,0
34.058565120,0,0,0,0,0,0,0,0
34.058586880,0,0,1,1,0,0,0,0
34.058615040,0,0,0,0,0,0,0,0
34.058636800,0,0,1,1,0,0,0,0
34.058664960,0,0,0,0,0,0,0,0
34.058686720,0,0,1,1,0,0,0,0
34.058714880,0,0,0,0,0,0,0,0
34.058736640,0,0,1,1,0,0,0,0
34.058764800,0,0,0,0,0,0,0,0
34.058786400,0,0,1,1,0,0,0,0
34.058814720,0,0,0,0,0,0,0,0
34.058836320,0,0,1,1,0,0,0,0
34.058864640,0,0,0,0,0,0,0,0
34.058886240,0,0,1,1,0,0,0,0
34.058914560,0,0,0,0,0,0,0,0
34.058936160,0,0,1,1,0,0,0,0
34.058964480,0,0,0,0,0,0,0,0
34.058986080,0,0,1,1,0,0,0,0
34.059014400,0,0,0,0,0,0,0,0
34.059036000,0,0,1,1,0,0,0,0
34.059064320,0,0,0,0,0,0,0,0
34.059085920,0,0,1,1,0,0,0,0
34.059114080,0,0,0,0,0,0,0,0
34.059135840,0,0,1,1,0,0,0,0
34.059164000,0,0,0,0,0,0,0,0
34.059185760,0,0,1,1,0,0,0,0
34.059213920,0,0,0,0,0,0,0,0
34.059235520,0,0,1,1,0,0,0,0
34.059263840,0,0,0,0,0,0,0,0
34.059285440,0,0,1,1,0,0,0,0
34.059313760,0,0,0,0,0,0,0,0
34.059335360,0,0,1,1,0,0,0,0
34.059363680,0,0,0,0,0,0,0,0
34.059385280,0,0,1,1,0,0,0,0
34.059413600,0,0,0,0,0,0,0,0
34.059435200,0,0,1,1,0,0,0,0
34.059463520,0,0,0,0,0,0,0,0
34.059485120,0,0,1,1,0,0,0,0
34.059513280,0,0,0,0,0,0,0,0
34.059535040,0,0,1,1,0,0,0,0
34.059563200,0,0,0,0,0,0,0,0
34.059584800,0,0,1,1,0,0,0,0
34.059613120,0,0,0,0,0,0,0,0
34.059634720,0,0,1,1,0,0,0,0
34.059663040,0,0,0,0,0,0,0,0
34.059684640,0,0,1,1,0,0,0,0
34.059712960,0,0,0,0,0,0,0,0
34.059734560,0,0,1,1,0,0,0,0
34.059762880,0,0,0,0,0,0,0,0
34.059784480,0,0,1,1,0,0,0,0
34.059812800,0,0,0,0,0,0,0,0
34.059834400,0,0,1,1,0,0,0,0
34.059862720,0,0,0,0,0,0,0,0
34.059884320,0,0,1,1,0,0,0,0
34.059912640,0,0,0,0,0,0,0,0
34.059934240,0,0,1,1,0,0,0,0
34.059962560,0,0,0,0,0,0,0,0
34.059984160,0,0,1,1,0,0,0,0
34.060012480,0,0,0,0,0,0,0,0
34.060034080,0,0,1,1,0,0,0,0
34.060062400,0,0,0,0,0,0,0,0
34.060084000,0,0,1,1,0,0,0,0
34.060112320,0,0,0,0,0,0,0,0
34.060133920,0,0,1,1,0,0,0,0
34.060162240,0,0,0,0,0,0,0,0
34.060183840,0,0,1,1,0,0,0,0
34.060212160,0,0,0,0,0,0,0,0
34.060233760,0,0,1,1,0,0,0,0
34.060261920,0,0,0,0,0,0,0,0
34.060283680,0,0,1,1,0,0,0,0
34.060311840,0,0,0,0,0,0,0,0
34.060333600,0,0,1,1,0,0,0,0
34.060361760,0,0,0,0,0,0,0,0
34.060383520,0,0,1,1,0,0,0,0
34.060411680,0,0,0,0,0,0,0,0
34.060433440,0,0,1,1,0,0,0,0
34.060461600,0,0,0,0,0,0,0,0
34.060483360,0,0,1,1,0,0,0,0
34.060511520,0,0,0,0,0,0,0,0
34.060533280,0,0,1,1,0,0,0,0
34.060561440,0,0,0,0,0,0,0,0
34.060583200,0,0,1,1,0,0,0,0
34.060611360,0,0,0,0,0,0,0,0
34.060632960,0,0,1,1,0,0,0,0
34.060661280,0,0,0,0,0,0,0,0
34.060682880,0,0,1,1,0,0,0,0
34.060711200,0,0,1,0,0,0,0,0
34.060711840,0,0,0,0,0,0,0,0
34.060732800,0,1,0,1,0,0,0,0
34.060761120,0,0,0,0,0,0,0,0
34.060782720,0,1,0,1,0,0,0,0
34.060811040,0,0,0,0,0,0,0,0
34.060832640,0,1,0,1,0,0,0,0
34.060860960,0,0,0,0,0,0,0,0
34.060882560,0,1,0,1,0,0,0,0
34.060910880,0,0,0,0,0,0,0,0
34.060932480,0,1,0,1,0,0,0,0
34.060932640,1,1,1,1,0,1,0,0
34.060932800,0,1,0,1,0,0,0,0
34.060960800,0,0,0,0,0,0,0,0
34.060982400,0,1,0,1,0,0,0,0
34.060982560,0,1,1,1,0,1,0,0
34.060982720,0,1,1,1,0,0,0,0
34.060983360,0,1,0,1,0,0,0,0
34.061010720,0,0,0,0,0,0,0,0
34.061032320,0,1,0,1,0,0,0,0
34.061032640,0,1,1,1,0,0,0,0
34.061033760,0,1,0,1,0,0,0,0
34.061060640,0,0,0,0,0,0,0,0
34.061082240,0,1,0,1,0,0,0,0
34.061082400,0,1,1,1,0,1,0,0
34.061082560,0,1,1,1,0,0,0,0
34.061083840,0,1,0,1,0,0,0,0
34.061110560,0,0,0,0,0,0,0,0
34.061132160,0,1,0,1,0,0,0,0
34.061132320,0,1,1,1,0,1,0,0
34.061132480,0,1,1,1,0,0,0,0
34.061133920,0,1,0,1,0,0,0,0
34.061160480,0,0,0,0,0,0,0,0
34.061182080,0,1,0,1,0,0,0,0
34.061182240,0,1,1,1,0,0,0,0
34.061183680,0,1,0,1,0,0,0,0
34.061210400,0,0,0,0,0,0,0,0
34.061232000,0,1,0,1,0,0,0,0
34.061232160,0,1,1,1,0,0,0,0
34.061233600,0,1,0,1,0,0,0,0
34.061260320,0,0,0,0,0,0,0,0
34.061281920,0,1,0,1,0,0,0,0
34.061282080,0,1,1,1,0,1,0,0
34.061282240,0,1,1,1,0,0,0,0
34.061283680,0,1,0,1,0,0,0,0
34.061310240,0,0,0,0,0,0,0,0
34.061331840,0,1,0,1,0,0,0,0
34.061332000,0,1,1,1,0,0,0,0
34.061333440,0,1,0,1,0,0,0,0
34.061360160,0,0,0,0,0,0,0,0
34.061381760,0,1,0,1,0,0,0,0
34.061381920,0,1,1,1,0,0,0,0
34.061383360,0,1,0,1,0,0,0,0
34.061410080,0,0,0,0,0,0,0,0
34.061431680,0,1,0,1,0,0,0,0
34.061431840,0,1,1,1,0,1,0,0
34.061432000,0,1,1,1,0,0,0,0
34.061433280,0,1,0,1,0,0,0,0
34.061459840,0,0,0,0,0,0,0,0
34.061481600,0,1,0,1,0,0,0,0
34.061481760,0,1,1,1,0,1,0,0
34.061481920,0,1,1,1,0,0,0,0
34.061483200,0,1,0,1,0,0,0,0
34.061509760,0,0,0,0,0,0,0,0
34.061531520,0,1,0,1,0,0,0,0
34.061531680,0,1,1,1,0,0,0,0
34.061533120,0,1,0,1,0,0,0,0
34.061559680,0,0,0,0,0,0,0,0
34.061581440,0,1,0,1,0,0,0,0
34.061581600,0,1,1,1,0,0,0,0
34.061581760,0,1,1,1,0,1,0,0
34.061581920,0,1,1,1,0,0,0,0
34.061583040,0,1,0,1,0,0,0,0
34.061609600,0,0,0,0,0,0,0,0
34.061631360,0,1,0,1,0,0,0,0
34.061631520,0,1,1,1,0,0,0,0
34.061631680,0,1,1,1,0,1,0,0
34.061631840,0,1,1,1,0,0,0,0
34.061632960,0,1,0,1,0,0,0,0
34.061659520,0,0,0,0,0,0,0,0
34.061681280,0,1,0,1,0,0,0,0
34.061681440,0,1,1,1,0,1,0,0
34.061681600,0,1,1,1,0,0,0,0
34.061682880,0,1,0,1,0,0,0,0
34.061709440,0,0,0,0,0,0,0,0
34.061731040,0,0,0,1,0,0,0,0
34.061731200,0,1,0,1,0,0,0,0
34.061731360,0,1,1,1,0,1,0,0
34.061731520,0,1,1,1,0,0,0,0
34.061732800,0,1,0,1,0,0,0,0
34.061759360,0,0,0,0,0,0,0,0
34.061780960,0,1,0,1,0,0,0,0
34.061781280,0,1,1,1,0,0,0,0
34.061782560,0,1,0,1,0,0,0,0
34.061809280,0,0,0,0,0,0,0,0
34.061830880,0,1,0,1,0,0,0,0
34.061831200,0,1,1,1,0,0,0,0
34.061832480,0,1,0,1,0,0,0,0
34.061853760,0,1,0,1,0,0,1,0
34.061859200,0,0,0,0,0,0,1,0
34.061876320,0,0,0,0,0,0,0,0
34.061880800,0,1,0,1,0,0,0,0
34.061881120,0,1,1,1,0,0,0,0
34.061882400,0,1,0,1,0,0,0,0
34.061903680,0,1,0,1,0,0,1,0
34.061909120,0,0,0,0,0,0,1,0
34.061926240,0,0,0,0,0,0,0,0
34.061930720,0,1,0,1,0,0,0,0
34.061931040,0,1,1,1,0,0,0,0
34.061932000,0,1,0,1,0,0,0,0
34.061953600,0,1,0,1,0,0,1,0
34.061959040,0,0,0,0,0,0,1,0
34.061976160,0,0,0,0,0,0,0,0
34.061980640,0,1,0,1,0,0,0,0
34.061980960,0,1,1,1,0,0,0,0
34.061981760,0,1,0,1,0,0,0,0
34.062003520,0,1,0,1,0,0,1,0
34.062008960,0,0,0,0,0,0,1,0
34.062026080,0,0,0,0,0,0,0,0
34.062030560,0,1,0,1,0,0,0,0
34.062031040,0,1,1,1,0,0,0,0
34.062031200,0,1,0,1,0,0,0,0
34.062053440,0,1,0,1,0,0,1,0
34.062058880,0,0,0,0,0,0,1,0
34.062076000,0,0,0,0,0,0,0,0
34.062080480,0,1,0,1,0,0,0,0
34.062103360,0,1,0,1,0,0,1,0
34.062108800,0,0,0,0,0,0,1,0
34.062125920,0,0,0,0,0,0,0,0
34.062130400,0,1,0,1,0,0,0,0
34.062153280,0,1,0,1,0,0,1,0
34.062158720,0,0,0,0,0,0,1,0
34.062175840,0,0,0,0,0,0,0,0
34.062180320,0,1,0,1,0,0,0,0
34.062203200,0,1,0,1,0,0,1,0
34.062208640,0,0,0,0,0,0,1,0
34.062225760,0,0,0,0,0,0,0,0
34.062230240,0,1,0,1,0,0,0,0
34.062253120,0,1,0,1,0,0,1,0
34.062258560,0,0,0,0,0,0,1,0
34.062275680,0,0,0,0,0,0,0,0
34.062280160,0,1,0,1,0,0,0,0
34.062303040,0,1,0,1,0,0,1,0
34.062308480,0,0,0,0,0,0,1,0
34.062325600,0,0,0,0,0,0,0,0
34.062330080,0,1,0,1,0,0,0,0
34.062352960,0,1,0,1,0,0,1,0
34.062358400,0,0,0,0,0,0,1,0
34.062375520,0,0,0,0,0,0,0,0
34.062380000,0,1,0,1,0,0,0,0
34.062402880,0,1,0,1,0,0,1,0
34.062408320,0,0,0,0,0,0,1,0
34.062425440,0,0,0,0,0,0,0,0
34.062429920,0,1,0,1,0,0,0,0
34.062452800,0,1,0,1,0,0,1,0
34.062458240,0,0,0,0,0,0,1,0
34.062475360,0,0,0,0,0,0,0,0
34.062479840,0,1,0,1,0,0,0,0
34.062502720,0,1,0,1,0,0,1,0
34.062508160,0,0,0,0,0,0,1,0
34.062525280,0,0,0,0,0,0,0,0
34.062529760,0,1,0,1,0,0,0,0
34.062552640,0,1,0,1,0,0,1,0
34.062558080,0,0,0,0,0,0,1,0
34.062575200,0,0,0,0,0,0,0,0
34.062579680,0,1,0,1,0,0,0,0
34.062602560,0,1,0,1,0,0,1,0
34.062608000,0,0,0,0,0,0,1,0
34.062625120,0,0,0,0,0,0,0,0
34.062629600,0,1,0,1,0,0,0,0
34.062652480,0,1,0,1,0,0,1,0
34.062657920,0,0,0,0,0,0,1,0
34.062675040,0,0,0,0,0,0,0,0
34.062679520,0,1,0,1,0,0,0,0
34.062702400,0,1,0,1,0,0,1,0
34.062707840,0,0,0,0,0,0,1,0
34.062724960,0,0,0,0,0,0,0,0
34.062729440,0,1,0,1,0,0,0,0
34.062752320,0,1,0,1,0,0,1,0
34.062757760,0,0,0,0,0,0,1,0
34.062774880,0,0,0,0,0,0,0,0
34.062779360,0,1,0,1,0,0,0,0
34.062802240,0,1,0,1,0,0,1,0
34.062807680,0,0,0,0,0,0,1,0
34.062824800,0,0,0,0,0,0,0,0
34.062829280,0,1,0,1,0,0,0,0
34.062852160,0,1,0,1,0,0,1,0
34.062857600,0,0,0,0,0,0,1,0
34.062874720,0,0,0,0,0,0,0,0
34.062879200,0,1,0,1,0,0,0,0
34.062902080,0,1,0,1,0,0,1,0
34.062907520,0,0,0,0,0,0,1,0
34.062924640,0,0,0,0,0,0,0,0
34.062929120,0,1,0,1,0,0,0,0
34.062952000,0,1,0,1,0,0,1,0
34.062957440,0,0,0,0,0,0,1,0
34.062974560,0,0,0,0,0,0,0,0
34.062979040,0,1,0,1,0,0,0,0
34.063001920,0,1,0,1,0,0,1,0
34.063007360,0,0,0,0,0,0,1,0
34.063024480,0,0,0,0,0,0,0,0
34.063028960,0,1,0,1,0,0,0,0
34.063051840,0,1,0,1,0,0,1,0
34.063057280,0,0,0,0,0,0,1,0
34.063074400,0,0,0,0,0,0,0,0
34.063078880,0,1,0,1,0,0,0,0
34.063101760,0,1,0,1,0,0,1,0
34.063107200,0,0,0,0,0,0,1,0
34.063124320,0,0,0,0,0,0,0,0
34.063128800,0,1,0,1,0,0,0,0
34.063151680,0,1,0,1,0,0,1,0
34.063157120,0,0,0,0,0,0,1,0
34.063174240,0,0,0,0,0,0,0,0
34.063178720,0,1,0,1,0,0,0,0
34.063201600,0,1,0,1,0,0,1,0
34.063207040,0,0,0,0,0,0,1,0
34.063224160,0,0,0,0,0,0,0,0
34.063228640,0,1,0,1,0,0,0,0
34.063251520,0,1,0,1,0,0,1,0
34.063256960,0,0,0,0,0,0,1,0
34.063274080,0,0,0,0,0,0,0,0
34.063278560,0,1,0,1,0,0,0,0
34.063301440,0,1,0,1,0,0,1,0
34.063306880,0,0,0,0,0,0,1,0
34.063324000,0,0,0,0,0,0,0,0
34.063328480,0,1,0,1,0,0,0,0
34.063351360,0,1,0,1,0,0,1,0
34.063356800,0,0,0,0,0,0,1,0
34.063373920,0,0,0,0,0,0,0,0
34.063378400,0,1,0,1,0,0,0,0
34.063401280,0,1,0,1,0,0,1,0
34.063406720,0,0,0,0,0,0,1,0
34.063423840,0,0,0,0,0,0,0,0
34.063428320,0,1,0,1,0,0,0,0
34.063451040,0,1,0,1,0,0,1,0
34.063456640,0,0,0,0,0,0,1,0
34.063473760,0,0,0,0,0,0,0,0
34.063478240,0,1,0,1,0,0,0,0
34.063500960,0,1,0,1,0,0,1,0
34.063506560,0,0,0,0,0,0,1,0
34.063523680,0,0,0,0,0,0,0,0
34.063528160,0,1,0,1,0,0,0,0
34.063550880,0,1,0,1,0,0,1,0
34.063556480,0,0,0,0,0,0,1,0
34.063573600,0,0,0,0,0,0,0,0
34.063578080,0,1,0,1,0,0,0,0
34.063600800,0,1,0,1,0,0,1,0
34.063606400,0,0,0,0,0,0,1,0
34.063623520,0,0,0,0,0,0,0,0
34.063628000,0,1,0,1,0,0,0,0
34.063650720,0,1,0,1,0,0,1,0
34.063656320,0,0,0,0,0,0,1,0
34.063673440,0,0,0,0,0,0,0,0
34.063677920,0,1,0,1,0,0,0,0
34.063700640,0,1,0,1,0,0,1,0
34.063706240,0,0,0,0,0,0,1,0
34.063723200,0,0,0,0,0,0,0,0
34.063727840,0,1,0,1,0,0,0,0
34.063750560,0,1,0,1,0,0,1,0
34.063756160,0,0,0,0,0,0,1,0
34.063773120,0,0,0,0,0,0,0,0
34.063777760,0,1,0,1,0,0,0,0
34.063800480,0,1,0,1,0,0,1,0
34.063806080,0,0,0,0,0,0,1,0
34.063823040,0,0,0,0,0,0,0,0
34.063827680,0,1,0,1,0,0,0,0
34.063850400,0,1,0,1,0,0,1,0
34.063856000,0,0,0,0,0,0,1,0
34.063872960,0,0,0,0,0,0,0,0
34.063877600,0,1,0,1,0,0,0,0
34.063900320,0,1,0,1,0,0,1,0
34.063905760,0,0,0,0,0,0,1,0
34.063922880,0,0,0,0,0,0,0,0
34.063927520,0,1,0,1,0,0,0,0
34.063950240,0,1,0,1,0,0,1,0
34.063955680,0,0,0,0,0,0,1,0
34.063972800,0,0,0,0,0,0,0,0
34.063977440,0,1,0,1,0,0,0,0
34.064000160,0,1,0,1,0,0,1,0
34.064005600,0,0,0,0,0,0,1,0
34.064022720,0,0,0,0,0,0,0,0
34.064027200,0,1,0,1,0,0,0,0
34.064050080,0,1,0,1,0,0,1,0
34.064055520,0,0,0,0,0,0,1,0
34.064072640,0,0,0,0,0,0,0,0
34.064077120,0,1,0,1,0,0,0,0
34.064100000,0,1,0,1,0,0,1,0
34.064105440,0,0,0,0,0,0,1,0
34.064122560,0,0,0,0,0,0,0,0
34.064127040,0,1,0,1,0,0,0,0
34.064149920,0,1,0,1,0,0,1,0
34.064155360,0,0,0,0,0,0,1,0
34.064172480,0,0,0,0,0,0,0,0
34.064176960,0,1,0,1,0,0,0,0
34.064199840,0,1,0,1,0,0,1,0
34.064205280,0,0,0,0,0,0,1,0
34.064222400,0,0,0,0,0,0,0,0
34.064226880,0,1,0,1,0,0,0,0
34.064249760,0,1,0,1,0,0,1,0
34.064255200,0,0,0,0,0,0,1,0
34.064272320,0,0,0,0,0,0,0,0
34.064276800,0,1,0,1,0,0,0,0
34.064299680,0,1,0,1,0,0,1,0
34.064305120,0,0,0,0,0,0,1,0
34.064322240,0,0,0,0,0,0,0,0
34.064326720,0,1,0,1,0,0,0,0
34.064349440,0,1,0,1,0,0,1,0
34.064355040,0,0,0,0,0,0,1,0
34.064372160,0,0,0,0,0,0,0,0
34.064376640,0,1,0,1,0,0,0,0
34.064399360,0,1,0,1,0,0,1,0
34.064404960,0,0,0,0,0,0,1,0
34.064422080,0,0,0,0,0,0,0,0
34.064426560,0,1,0,1,0,0,0,0
34.064449280,0,1,0,1,0,0,1,0
34.064454880,0,0,0,0,0,0,1,0
34.064472000,0,0,0,0,0,0,0,0
34.064476480,0,1,0,1,0,0,0,0
34.064499200,0,1,0,1,0,0,1,0
34.064504800,0,0,0,0,0,0,1,0
34.064521760,0,0,0,0,0,0,0,0
34.064526400,0,1,0,1,0,0,0,0
34.064549120,0,1,0,1,0,0,1,0
34.064554720,0,0,0,0,0,0,1,0
34.064571680,0,0,0,0,0,0,0,0
34.064576320,0,1,0,1,0,0,0,0
34.064599040,0,1,0,1,0,0,1,0
34.064604480,0,0,0,0,0,0,1,0
34.064621600,0,0,0,0,0,0,0,0
34.064626240,0,1,0,1,0,0,0,0
34.064648960,0,1,0,1,0,0,1,0
34.064654400,0,0,0,0,0,0,1,0
34.064671520,0,0,0,0,0,0,0,0
34.064676160,0,1,0,1,0,0,0,0
34.064698880,0,1,0,1,0,0,1,0
34.064704320,0,0,0,0,0,0,1,0
34.064721440,0,0,0,0,0,0,0,0
34.064725920,0,1,0,1,0,0,0,0
34.064748800,0,1,0,1,0,0,1,0
34.064754240,0,0,0,0,0,0,1,0
34.064771360,0,0,0,0,0,0,0,0
34.064775840,0,1,0,1,0,0,0,0
34.064798720,0,1,0,1,0,0,1,0
34.064804160,0,0,0,0,0,0,1,0
34.064821280,0,0,0,0,0,0,0,0
34.064825760,0,1,0,1,0,0,0,0
34.064848640,0,1,0,1,0,0,1,0
34.064854080,0,0,0,0,0,0,1,0
34.064871200,0,0,0,0,0,0,0,0
34.064875680,0,1,0,1,0,0,0,0
34.064898560,0,1,0,1,0,0,1,0
34.064904000,0,0,0,0,0,0,1,0
34.064921120,0,0,0,0,0,0,0,0
34.064925600,0,1,0,1,0,0,0,0
34.064948480,0,1,0,1,0,0,1,0
34.064953920,0,0,0,0,0,0,1,0
34.064971040,0,0,0,0,0,0,0,0
34.064975520,0,1,0,1,0,0,0,0
34.064998400,0,1,0,1,0,0,1,0
34.065003840,0,0,0,0,0,0,1,0
34.065020960,0,0,0,0,0,0,0,0
34.065025440,0,1,0,1,0,0,0,0
34.065048320,0,1,0,1,0,0,1,0
34.065053760,0,0,0,0,0,0,1,0
34.065070880,0,0,0,0,0,0,0,0
34.065075360,0,1,0,1,0,0,0,0
34.065098240,0,1,0,1,0,0,1,0
34.065103680,0,0,0,0,0,0,1,0
34.065120800,0,0,0,0,0,0,0,0
34.065125280,0,1,0,1,0,0,0,0
34.065148000,0,1,0,1,0,0,1,0
34.065153600,0,0,0,0,0,0,1,0
34.065170720,0,0,0,0,0,0,0,0
34.065175200,0,1,0,1,0,0,0,0
34.065197920,0,1,0,1,0,0,1,0
34.065203520,0,0,0,0,0,0,1,0
34.065220640,0,0,0,0,0,0,0,0
34.065225120,0,1,0,1,0,0,0,0
34.065247840,0,1,0,1,0,0,1,0
34.065253440,0,0,0,0,0,0,1,0
34.065270560,0,0,0,0,0,0,0,0
34.065275040,0,1,0,1,0,0,0,0
34.065297760,0,1,0,1,0,0,1,0
34.065303360,0,0,0,0,0,0,1,0
34.065320480,0,0,0,0,0,0,0,0
34.065324960,0,1,0,1,0,0,0,0
34.065347680,0,1,0,1,0,0,1,0
34.065353280,0,0,0,0,0,0,1,0
34.065370240,0,0,0,0,0,0,0,0
34.065374880,0,1,0,1,0,0,0,0
34.065397600,0,1,0,1,0,0,1,0
34.065403200,0,0,0,0,0,0,1,0
34.065420160,0,0,0,0,0,0,0,0
34.065424800,0,1,0,1,0,0,0,0
34.065447520,0,1,0,1,0,0,1,0
34.065453120,0,0,0,0,0,0,1,0
34.065470080,0,0,0,0,0,0,0,0
34.065474720,0,1,0,1,0,0,0,0
34.065497440,0,1,0,1,0,0,1,0
34.065503040,0,0,0,0,0,0,1,0
34.065520000,0,0,0,0,0,0,0,0
34.065524640,0,1,0,1,0,0,0,0
34.065547360,0,1,0,1,0,0,1,0
34.065552800,0,0,0,0,0,0,1,0
34.065569920,0,0,0,0,0,0,0,0
34.065574560,0,1,0,1,0,0,0,0
34.065597280,0,1,0,1,0,0,1,0
34.065602720,0,0,0,0,0,0,1,0
34.065619840,0,0,0,0,0,0,0,0
34.065624480,0,1,0,1,0,0,0,0
34.065647200,0,1,0,1,0,0,1,0
34.065652640,0,0,0,0,0,0,1,0
34.065669760,0,0,0,0,0,0,0,0
34.065674400,0,1,0,1,0,0,0,0
34.065697120,0,1,0,1,0,0,1,0
34.065702560,0,0,0,0,0,0,1,0
34.065719680,0,0,0,0,0,0,0,0
34.065724320,0,1,0,1,0,0,0,0
34.065741920,0,1,0,0,0,0,0,0
34.065747040,0,1,0,0,0,0,1,0
34.065752480,0,0,0,0,0,0,1,0
34.065769600,0,0,0,0,0,0,0,0
34.065774080,0,1,0,0,0,1,0,0
34.065796960,0,1,0,0,0,1,1,0
34.065802400,0,0,0,0,0,0,1,0
34.065819520,0,0,0,0,0,0,0,0
34.065824000,0,1,0,0,0,1,0,0
34.065846880,0,1,0,0,0,1,1,0
